<Qucs Dataset 2.0.0>
<indep time 435>
0.000000000000e+00
1.000000000000e-11
2.000000000000e-11
4.000000000000e-11
8.000000000000e-11
1.600000000000e-10
3.200000000000e-10
6.400000000000e-10
1.000000000000e-09
1.064000000000e-09
1.192000000000e-09
1.448000000000e-09
1.960000000000e-09
2.984000000000e-09
5.032000000000e-09
9.128000000000e-09
1.732000000000e-08
3.370400000000e-08
6.647200000000e-08
1.320080000000e-07
2.630800000000e-07
5.252240000000e-07
1.049512000000e-06
2.098088000000e-06
4.195240000000e-06
8.389544000000e-06
1.677815200000e-05
3.355536800000e-05
6.710980000000e-05
1.171098000000e-04
1.671098000000e-04
2.171098000000e-04
2.671098000000e-04
3.171098000000e-04
3.671098000000e-04
4.171098000000e-04
4.671098000000e-04
5.171098000000e-04
5.671098000000e-04
6.171098000000e-04
6.671098000000e-04
7.171098000000e-04
7.671098000000e-04
8.171098000000e-04
8.671098000000e-04
9.171098000000e-04
9.671098000000e-04
1.000001000000e-03
1.000001100000e-03
1.000001300000e-03
1.000001700000e-03
1.000002000000e-03
1.000002080000e-03
1.000002240000e-03
1.000002560000e-03
1.000003200000e-03
1.000004480000e-03
1.000007040000e-03
1.000012160000e-03
1.000022400000e-03
1.000042880000e-03
1.000083840000e-03
1.000165760000e-03
1.000329600000e-03
1.000657280000e-03
1.001312640000e-03
1.002623360000e-03
1.005244800000e-03
1.010487679999e-03
1.020973439998e-03
1.041944959996e-03
1.083887999992e-03
1.133887999992e-03
1.183887999992e-03
1.233887999992e-03
1.283887999992e-03
1.333887999992e-03
1.383887999992e-03
1.433887999992e-03
1.483887999992e-03
1.533887999992e-03
1.583887999992e-03
1.633887999992e-03
1.683887999992e-03
1.733887999992e-03
1.783887999992e-03
1.833887999992e-03
1.883887999992e-03
1.933887999992e-03
1.983887999992e-03
2.000000000000e-03
2.000000100000e-03
2.000000300000e-03
2.000000700000e-03
2.000001000000e-03
2.000001080000e-03
2.000001240000e-03
2.000001560000e-03
2.000002200000e-03
2.000003480000e-03
2.000006040000e-03
2.000011160000e-03
2.000021400000e-03
2.000041880000e-03
2.000082840000e-03
2.000164760000e-03
2.000328600000e-03
2.000656280000e-03
2.001311640000e-03
2.002622360000e-03
2.005243800000e-03
2.010486679999e-03
2.020972439998e-03
2.041943959996e-03
2.083886999992e-03
2.133886999992e-03
2.183886999992e-03
2.233886999992e-03
2.283886999992e-03
2.333886999992e-03
2.383886999992e-03
2.433886999992e-03
2.483886999992e-03
2.533886999992e-03
2.583886999992e-03
2.633886999992e-03
2.683886999992e-03
2.733886999992e-03
2.783886999992e-03
2.833886999992e-03
2.883886999992e-03
2.933886999992e-03
2.983886999992e-03
3.000001000000e-03
3.000001100000e-03
3.000001300000e-03
3.000001700000e-03
3.000002000000e-03
3.000002080000e-03
3.000002240000e-03
3.000002560000e-03
3.000003200000e-03
3.000004480000e-03
3.000007040000e-03
3.000012160000e-03
3.000022400000e-03
3.000042880000e-03
3.000083840000e-03
3.000165760000e-03
3.000329600000e-03
3.000657280000e-03
3.001312640000e-03
3.002623360000e-03
3.005244800000e-03
3.010487679999e-03
3.020973439998e-03
3.041944959996e-03
3.083887999992e-03
3.133887999992e-03
3.183887999992e-03
3.233887999992e-03
3.283887999992e-03
3.333887999992e-03
3.383887999992e-03
3.433887999992e-03
3.483887999992e-03
3.533887999992e-03
3.583887999992e-03
3.633887999992e-03
3.683887999992e-03
3.733887999992e-03
3.783887999992e-03
3.833887999992e-03
3.883887999992e-03
3.933887999992e-03
3.983887999992e-03
4.000000000000e-03
4.000000100000e-03
4.000000300000e-03
4.000000700000e-03
4.000001000000e-03
4.000001080000e-03
4.000001240000e-03
4.000001560000e-03
4.000002200000e-03
4.000003480000e-03
4.000006040000e-03
4.000011160000e-03
4.000021400000e-03
4.000041880000e-03
4.000082840000e-03
4.000164760000e-03
4.000328600000e-03
4.000656280000e-03
4.001311640000e-03
4.002622360001e-03
4.005243800002e-03
4.010486680004e-03
4.020972440007e-03
4.041943960014e-03
4.083887000029e-03
4.133887000029e-03
4.183887000029e-03
4.233887000029e-03
4.283887000029e-03
4.333887000029e-03
4.383887000029e-03
4.433887000029e-03
4.483887000029e-03
4.533887000029e-03
4.583887000029e-03
4.633887000029e-03
4.683887000029e-03
4.733887000029e-03
4.783887000029e-03
4.833887000029e-03
4.883887000029e-03
4.933887000029e-03
4.983887000029e-03
5.000001000000e-03
5.000001100000e-03
5.000001300000e-03
5.000001700000e-03
5.000002000000e-03
5.000002080000e-03
5.000002240000e-03
5.000002560000e-03
5.000003200000e-03
5.000004480000e-03
5.000007040000e-03
5.000012160000e-03
5.000022400000e-03
5.000042880000e-03
5.000083840000e-03
5.000165760000e-03
5.000329600000e-03
5.000657280000e-03
5.001312640000e-03
5.002623360001e-03
5.005244800002e-03
5.010487680004e-03
5.020973440007e-03
5.041944960014e-03
5.083888000029e-03
5.133888000029e-03
5.183888000029e-03
5.233888000029e-03
5.283888000029e-03
5.333888000029e-03
5.383888000029e-03
5.433888000029e-03
5.483888000029e-03
5.533888000029e-03
5.583888000029e-03
5.633888000029e-03
5.683888000029e-03
5.733888000029e-03
5.783888000029e-03
5.833888000029e-03
5.883888000029e-03
5.933888000029e-03
5.983888000029e-03
6.000000000000e-03
6.000000100000e-03
6.000000300000e-03
6.000000700000e-03
6.000001000000e-03
6.000001080000e-03
6.000001240000e-03
6.000001560000e-03
6.000002200000e-03
6.000003480000e-03
6.000006040000e-03
6.000011160000e-03
6.000021400000e-03
6.000041880000e-03
6.000082840000e-03
6.000164760000e-03
6.000328600000e-03
6.000656280000e-03
6.001311640000e-03
6.002622360001e-03
6.005243800002e-03
6.010486680004e-03
6.020972440007e-03
6.041943960014e-03
6.083887000029e-03
6.133887000029e-03
6.183887000029e-03
6.233887000029e-03
6.283887000029e-03
6.333887000029e-03
6.383887000029e-03
6.433887000029e-03
6.483887000029e-03
6.533887000029e-03
6.583887000029e-03
6.633887000029e-03
6.683887000029e-03
6.733887000029e-03
6.783887000029e-03
6.833887000029e-03
6.883887000029e-03
6.933887000029e-03
6.983887000029e-03
7.000001000000e-03
7.000001100000e-03
7.000001300000e-03
7.000001700000e-03
7.000002000000e-03
7.000002080000e-03
7.000002240000e-03
7.000002560000e-03
7.000003200000e-03
7.000004480000e-03
7.000007040000e-03
7.000012160000e-03
7.000022400000e-03
7.000042880000e-03
7.000083840000e-03
7.000165760000e-03
7.000329600000e-03
7.000657280000e-03
7.001312640000e-03
7.002623360001e-03
7.005244800002e-03
7.010487680004e-03
7.020973440007e-03
7.041944960014e-03
7.083888000029e-03
7.133888000029e-03
7.183888000029e-03
7.233888000029e-03
7.283888000029e-03
7.333888000029e-03
7.383888000029e-03
7.433888000029e-03
7.483888000029e-03
7.533888000029e-03
7.583888000029e-03
7.633888000029e-03
7.683888000029e-03
7.733888000029e-03
7.783888000029e-03
7.833888000029e-03
7.883888000029e-03
7.933888000029e-03
7.983888000029e-03
8.000000000000e-03
8.000000100000e-03
8.000000300000e-03
8.000000700000e-03
8.000001000000e-03
8.000001080000e-03
8.000001240000e-03
8.000001560000e-03
8.000002200000e-03
8.000003480000e-03
8.000006040000e-03
8.000011160000e-03
8.000021400000e-03
8.000041880000e-03
8.000082840000e-03
8.000164760000e-03
8.000328600000e-03
8.000656280000e-03
8.001311639999e-03
8.002622359999e-03
8.005243799997e-03
8.010486679994e-03
8.020972439989e-03
8.041943959978e-03
8.083886999956e-03
8.133886999956e-03
8.183886999956e-03
8.233886999956e-03
8.283886999956e-03
8.333886999956e-03
8.383886999956e-03
8.433886999956e-03
8.483886999956e-03
8.533886999956e-03
8.583886999956e-03
8.633886999956e-03
8.683886999956e-03
8.733886999956e-03
8.783886999956e-03
8.833886999956e-03
8.883886999956e-03
8.933886999956e-03
8.983886999956e-03
9.000001000000e-03
9.000001100000e-03
9.000001300000e-03
9.000001700000e-03
9.000002000000e-03
9.000002080000e-03
9.000002240000e-03
9.000002560000e-03
9.000003200000e-03
9.000004480000e-03
9.000007040000e-03
9.000012160000e-03
9.000022400000e-03
9.000042880000e-03
9.000083840000e-03
9.000165760000e-03
9.000329600000e-03
9.000657280000e-03
9.001312639999e-03
9.002623359999e-03
9.005244799997e-03
9.010487679994e-03
9.020973439989e-03
9.041944959978e-03
9.083887999956e-03
9.133887999956e-03
9.183887999956e-03
9.233887999956e-03
9.283887999956e-03
9.333887999956e-03
9.383887999956e-03
9.433887999956e-03
9.483887999956e-03
9.533887999956e-03
9.583887999956e-03
9.633887999956e-03
9.683887999956e-03
9.733887999956e-03
9.783887999956e-03
9.833887999956e-03
9.883887999956e-03
9.933887999956e-03
9.983887999956e-03
1.000000000000e-02
</indep>
<dep tran.v(in) time>
3.337492122486e+00
3.354032130300e+00
3.370516360782e+00
3.403484821744e+00
3.469421743667e+00
3.601295587515e+00
3.865043275211e+00
4.392538650603e+00
4.985970947918e+00
4.985970947918e+00
4.985970947918e+00
4.985970947918e+00
4.985970947918e+00
4.985970947918e+00
4.985970947918e+00
4.985970947918e+00
4.985970947918e+00
4.985970947918e+00
4.985970947918e+00
4.985970947918e+00
4.985970947918e+00
4.985970947918e+00
4.985970947918e+00
4.985970947918e+00
4.985970947918e+00
4.985970947918e+00
4.985970947918e+00
4.985970947918e+00
4.985970947918e+00
4.985970947918e+00
4.985970947918e+00
4.985970947918e+00
4.985970947918e+00
4.985970947918e+00
4.985970947918e+00
4.985970947918e+00
4.985970947918e+00
4.985970947918e+00
4.985970947918e+00
4.985970947918e+00
4.985970947918e+00
4.985970947918e+00
4.985970947918e+00
4.985970947918e+00
4.985970947918e+00
4.985970947918e+00
4.985970947918e+00
4.985970947918e+00
4.821128643052e+00
4.491444033320e+00
3.832074814213e+00
3.337547899820e+00
3.337547899820e+00
3.337547899820e+00
3.337547899820e+00
3.337547899820e+00
3.337547899820e+00
3.337547899820e+00
3.337547899820e+00
3.337547899820e+00
3.337547899820e+00
3.337547899820e+00
3.337547899820e+00
3.337547899820e+00
3.337547899820e+00
3.337547899820e+00
3.337547899820e+00
3.337547899820e+00
3.337547899820e+00
3.337547899820e+00
3.337547899820e+00
3.337547899820e+00
3.337547899820e+00
3.337547899820e+00
3.337547899820e+00
3.337547899820e+00
3.337547899820e+00
3.337547899820e+00
3.337547899820e+00
3.337547899820e+00
3.337547899820e+00
3.337547899820e+00
3.337547899820e+00
3.337547899820e+00
3.337547899820e+00
3.337547899820e+00
3.337547899820e+00
3.337547899820e+00
3.337547899820e+00
3.337547899820e+00
3.337547899820e+00
3.502390204686e+00
3.832074814418e+00
4.491444033882e+00
4.985970947765e+00
4.985970947918e+00
4.985970947918e+00
4.985970947918e+00
4.985970947918e+00
4.985970947918e+00
4.985970947918e+00
4.985970947918e+00
4.985970947918e+00
4.985970947918e+00
4.985970947918e+00
4.985970947918e+00
4.985970947918e+00
4.985970947918e+00
4.985970947918e+00
4.985970947918e+00
4.985970947918e+00
4.985970947918e+00
4.985970947918e+00
4.985970947918e+00
4.985970947918e+00
4.985970947918e+00
4.985970947918e+00
4.985970947918e+00
4.985970947918e+00
4.985970947918e+00
4.985970947918e+00
4.985970947918e+00
4.985970947918e+00
4.985970947918e+00
4.985970947918e+00
4.985970947918e+00
4.985970947918e+00
4.985970947918e+00
4.985970947918e+00
4.985970947918e+00
4.985970947918e+00
4.985970947918e+00
4.985970947918e+00
4.985970947918e+00
4.821128643052e+00
4.491444033320e+00
3.832074813856e+00
3.337547899820e+00
3.337547899820e+00
3.337547899820e+00
3.337547899820e+00
3.337547899820e+00
3.337547899820e+00
3.337547899820e+00
3.337547899820e+00
3.337547899820e+00
3.337547899820e+00
3.337547899820e+00
3.337547899820e+00
3.337547899820e+00
3.337547899820e+00
3.337547899820e+00
3.337547899820e+00
3.337547899820e+00
3.337547899820e+00
3.337547899820e+00
3.337547899820e+00
3.337547899820e+00
3.337547899820e+00
3.337547899820e+00
3.337547899820e+00
3.337547899820e+00
3.337547899820e+00
3.337547899820e+00
3.337547899820e+00
3.337547899820e+00
3.337547899820e+00
3.337547899820e+00
3.337547899820e+00
3.337547899820e+00
3.337547899820e+00
3.337547899820e+00
3.337547899820e+00
3.337547899820e+00
3.337547899820e+00
3.337547899820e+00
3.337547899820e+00
3.502390203971e+00
3.832074813703e+00
4.491444033167e+00
4.985970947918e+00
4.985970947918e+00
4.985970947918e+00
4.985970947918e+00
4.985970947918e+00
4.985970947918e+00
4.985970947918e+00
4.985970947918e+00
4.985970947918e+00
4.985970947918e+00
4.985970947918e+00
4.985970947918e+00
4.985970947918e+00
4.985970947918e+00
4.985970947918e+00
4.985970947918e+00
4.985970947918e+00
4.985970947918e+00
4.985970947918e+00
4.985970947918e+00
4.985970947918e+00
4.985970947918e+00
4.985970947918e+00
4.985970947918e+00
4.985970947918e+00
4.985970947918e+00
4.985970947918e+00
4.985970947918e+00
4.985970947918e+00
4.985970947918e+00
4.985970947918e+00
4.985970947918e+00
4.985970947918e+00
4.985970947918e+00
4.985970947918e+00
4.985970947918e+00
4.985970947918e+00
4.985970947918e+00
4.985970947918e+00
4.985970947203e+00
4.821128643052e+00
4.491444033320e+00
3.832074813856e+00
3.337547899820e+00
3.337547899820e+00
3.337547899820e+00
3.337547899820e+00
3.337547899820e+00
3.337547899820e+00
3.337547899820e+00
3.337547899820e+00
3.337547899820e+00
3.337547899820e+00
3.337547899820e+00
3.337547899820e+00
3.337547899820e+00
3.337547899820e+00
3.337547899820e+00
3.337547899820e+00
3.337547899820e+00
3.337547899820e+00
3.337547899820e+00
3.337547899820e+00
3.337547899820e+00
3.337547899820e+00
3.337547899820e+00
3.337547899820e+00
3.337547899820e+00
3.337547899820e+00
3.337547899820e+00
3.337547899820e+00
3.337547899820e+00
3.337547899820e+00
3.337547899820e+00
3.337547899820e+00
3.337547899820e+00
3.337547899820e+00
3.337547899820e+00
3.337547899820e+00
3.337547899820e+00
3.337547899820e+00
3.337547899820e+00
3.337547899820e+00
3.502390203971e+00
3.832074813703e+00
4.491444033167e+00
4.985970947918e+00
4.985970947918e+00
4.985970947918e+00
4.985970947918e+00
4.985970947918e+00
4.985970947918e+00
4.985970947918e+00
4.985970947918e+00
4.985970947918e+00
4.985970947918e+00
4.985970947918e+00
4.985970947918e+00
4.985970947918e+00
4.985970947918e+00
4.985970947918e+00
4.985970947918e+00
4.985970947918e+00
4.985970947918e+00
4.985970947918e+00
4.985970947918e+00
4.985970947918e+00
4.985970947918e+00
4.985970947918e+00
4.985970947918e+00
4.985970947918e+00
4.985970947918e+00
4.985970947918e+00
4.985970947918e+00
4.985970947918e+00
4.985970947918e+00
4.985970947918e+00
4.985970947918e+00
4.985970947918e+00
4.985970947918e+00
4.985970947918e+00
4.985970947918e+00
4.985970947918e+00
4.985970947918e+00
4.985970947918e+00
4.985970947203e+00
4.821128643052e+00
4.491444033320e+00
3.832074813856e+00
3.337547899820e+00
3.337547899820e+00
3.337547899820e+00
3.337547899820e+00
3.337547899820e+00
3.337547899820e+00
3.337547899820e+00
3.337547899820e+00
3.337547899820e+00
3.337547899820e+00
3.337547899820e+00
3.337547899820e+00
3.337547899820e+00
3.337547899820e+00
3.337547899820e+00
3.337547899820e+00
3.337547899820e+00
3.337547899820e+00
3.337547899820e+00
3.337547899820e+00
3.337547899820e+00
3.337547899820e+00
3.337547899820e+00
3.337547899820e+00
3.337547899820e+00
3.337547899820e+00
3.337547899820e+00
3.337547899820e+00
3.337547899820e+00
3.337547899820e+00
3.337547899820e+00
3.337547899820e+00
3.337547899820e+00
3.337547899820e+00
3.337547899820e+00
3.337547899820e+00
3.337547899820e+00
3.337547899820e+00
3.337547899820e+00
3.337547899820e+00
3.502390203971e+00
3.832074812273e+00
4.491444031737e+00
4.985970947050e+00
4.985970947918e+00
4.985970947918e+00
4.985970947918e+00
4.985970947918e+00
4.985970947918e+00
4.985970947918e+00
4.985970947918e+00
4.985970947918e+00
4.985970947918e+00
4.985970947918e+00
4.985970947918e+00
4.985970947918e+00
4.985970947918e+00
4.985970947918e+00
4.985970947918e+00
4.985970947918e+00
4.985970947918e+00
4.985970947918e+00
4.985970947918e+00
4.985970947918e+00
4.985970947918e+00
4.985970947918e+00
4.985970947918e+00
4.985970947918e+00
4.985970947918e+00
4.985970947918e+00
4.985970947918e+00
4.985970947918e+00
4.985970947918e+00
4.985970947918e+00
4.985970947918e+00
4.985970947918e+00
4.985970947918e+00
4.985970947918e+00
4.985970947918e+00
4.985970947918e+00
4.985970947918e+00
4.985970947918e+00
4.985970947203e+00
4.821128643052e+00
4.491444034750e+00
3.832074815285e+00
3.337547899820e+00
3.337547899820e+00
3.337547899820e+00
3.337547899820e+00
3.337547899820e+00
3.337547899820e+00
3.337547899820e+00
3.337547899820e+00
3.337547899820e+00
3.337547899820e+00
3.337547899820e+00
3.337547899820e+00
3.337547899820e+00
3.337547899820e+00
3.337547899820e+00
3.337547899820e+00
3.337547899820e+00
3.337547899820e+00
3.337547899820e+00
3.337547899820e+00
3.337547899820e+00
3.337547899820e+00
3.337547899820e+00
3.337547899820e+00
3.337547899820e+00
3.337547899820e+00
3.337547899820e+00
3.337547899820e+00
3.337547899820e+00
3.337547899820e+00
3.337547899820e+00
3.337547899820e+00
3.337547899820e+00
3.337547899820e+00
3.337547899820e+00
3.337547899820e+00
3.337547899820e+00
3.337547899820e+00
3.337547899820e+00
3.337547899820e+00
</dep>
<dep tran.v(out) time>
0.000000000000e+00
0.000000000000e+00
0.000000000000e+00
0.000000000000e+00
0.000000000000e+00
0.000000000000e+00
0.000000000000e+00
0.000000000000e+00
0.000000000000e+00
0.000000000000e+00
0.000000000000e+00
0.000000000000e+00
0.000000000000e+00
0.000000000000e+00
0.000000000000e+00
0.000000000000e+00
0.000000000000e+00
0.000000000000e+00
0.000000000000e+00
0.000000000000e+00
0.000000000000e+00
0.000000000000e+00
0.000000000000e+00
0.000000000000e+00
0.000000000000e+00
0.000000000000e+00
0.000000000000e+00
0.000000000000e+00
0.000000000000e+00
0.000000000000e+00
0.000000000000e+00
0.000000000000e+00
0.000000000000e+00
0.000000000000e+00
0.000000000000e+00
0.000000000000e+00
0.000000000000e+00
0.000000000000e+00
0.000000000000e+00
0.000000000000e+00
0.000000000000e+00
0.000000000000e+00
0.000000000000e+00
0.000000000000e+00
0.000000000000e+00
0.000000000000e+00
0.000000000000e+00
0.000000000000e+00
0.000000000000e+00
0.000000000000e+00
0.000000000000e+00
0.000000000000e+00
0.000000000000e+00
0.000000000000e+00
0.000000000000e+00
0.000000000000e+00
0.000000000000e+00
0.000000000000e+00
0.000000000000e+00
0.000000000000e+00
0.000000000000e+00
0.000000000000e+00
0.000000000000e+00
0.000000000000e+00
0.000000000000e+00
0.000000000000e+00
0.000000000000e+00
0.000000000000e+00
0.000000000000e+00
0.000000000000e+00
0.000000000000e+00
0.000000000000e+00
0.000000000000e+00
0.000000000000e+00
0.000000000000e+00
0.000000000000e+00
0.000000000000e+00
0.000000000000e+00
0.000000000000e+00
0.000000000000e+00
0.000000000000e+00
0.000000000000e+00
0.000000000000e+00
0.000000000000e+00
0.000000000000e+00
0.000000000000e+00
0.000000000000e+00
0.000000000000e+00
0.000000000000e+00
0.000000000000e+00
0.000000000000e+00
0.000000000000e+00
0.000000000000e+00
0.000000000000e+00
0.000000000000e+00
0.000000000000e+00
0.000000000000e+00
0.000000000000e+00
0.000000000000e+00
0.000000000000e+00
0.000000000000e+00
0.000000000000e+00
0.000000000000e+00
0.000000000000e+00
0.000000000000e+00
0.000000000000e+00
0.000000000000e+00
0.000000000000e+00
0.000000000000e+00
0.000000000000e+00
0.000000000000e+00
0.000000000000e+00
0.000000000000e+00
0.000000000000e+00
0.000000000000e+00
0.000000000000e+00
0.000000000000e+00
0.000000000000e+00
0.000000000000e+00
0.000000000000e+00
0.000000000000e+00
0.000000000000e+00
0.000000000000e+00
0.000000000000e+00
0.000000000000e+00
0.000000000000e+00
0.000000000000e+00
0.000000000000e+00
0.000000000000e+00
0.000000000000e+00
0.000000000000e+00
0.000000000000e+00
0.000000000000e+00
0.000000000000e+00
0.000000000000e+00
0.000000000000e+00
0.000000000000e+00
0.000000000000e+00
0.000000000000e+00
0.000000000000e+00
0.000000000000e+00
0.000000000000e+00
0.000000000000e+00
0.000000000000e+00
0.000000000000e+00
0.000000000000e+00
0.000000000000e+00
0.000000000000e+00
0.000000000000e+00
0.000000000000e+00
0.000000000000e+00
0.000000000000e+00
0.000000000000e+00
0.000000000000e+00
0.000000000000e+00
0.000000000000e+00
0.000000000000e+00
0.000000000000e+00
0.000000000000e+00
0.000000000000e+00
0.000000000000e+00
0.000000000000e+00
0.000000000000e+00
0.000000000000e+00
0.000000000000e+00
0.000000000000e+00
0.000000000000e+00
0.000000000000e+00
0.000000000000e+00
0.000000000000e+00
0.000000000000e+00
0.000000000000e+00
0.000000000000e+00
0.000000000000e+00
0.000000000000e+00
0.000000000000e+00
0.000000000000e+00
